T71B4 000:046.833   SEGGER J-Link V7.82 Log File
T71B4 000:046.920   DLL Compiled: Oct 13 2022 13:32:51
T71B4 000:046.924   Logging started @ 2025-03-20 10:20
T71B4 000:046.928 - 46.930ms
T71B4 000:046.936 JLINK_SetWarnOutHandler(...)
T71B4 000:046.941 - 0.006ms
T71B4 000:046.945 JLINK_OpenEx(...)
T71B4 000:048.629   Firmware: J-Link OB-STM32F103 V1 compiled Feb  2 2030 16:13:57
T71B4 000:049.265   Firmware: J-Link OB-STM32F103 V1 compiled Feb  2 2030 16:13:57
T71B4 000:069.353   Hardware: V1.00
T71B4 000:069.374   S/N: 24100557
T71B4 000:069.382   OEM: SEGGER
T71B4 000:069.390   Feature(s): None
T71B4 000:072.150   TELNET listener socket opened on port 19021
T71B4 000:072.347   WEBSRV WEBSRV_Init(): Starting webserver thread(s)
T71B4 000:072.641   WEBSRV Webserver running on local port 19080
T71B4 000:078.731 - 31.796ms returns "O.K."
T71B4 000:078.764 JLINK_SetErrorOutHandler(...)
T71B4 000:078.768 - 0.005ms
T71B4 000:078.792 JLINK_ExecCommand("ProjectFile = "D:\qiyanglin\隔空\Task\EVB底板增加接收验证\PY32F0xx_Firmware-tools_evb\Projects\PY32F003-STK\Example\USART\uart_adapter\MDK-ARM\JLinkSettings.ini"", ...). 
T71B4 000:087.251   Ref file found at: D:\Keil_v5\ARM\Segger\JLinkDevices.ref
T71B4 000:087.316   REF file references invalid XML file: C:\Program Files\SEGGER\JLink\JLinkDevices.xml
T71B4 000:090.136   Device "CORTEX-M0+" selected.
T71B4 000:090.328 - 11.540ms returns 0x00
T71B4 000:091.824 JLINK_ExecCommand("Device = PY32F003x8", ...). 
T71B4 000:093.302   Device "CORTEX-M0+" selected.
T71B4 000:093.474 - 1.644ms returns 0x00
T71B4 000:093.482 JLINK_ExecCommand("DisableConnectionTimeout", ...). 
T71B4 000:093.487 - 0.002ms returns 0x01
T71B4 000:093.491 JLINK_TIF_Select(JLINKARM_TIF_SWD)
T71B4 000:095.185 - 1.699ms returns 0x00
T71B4 000:095.195 JLINK_HasError()
T71B4 000:095.211 JLINK_SetSpeed(500)
T71B4 000:095.492 - 0.282ms
T71B4 000:095.496 JLINK_GetHardwareVersion()
T71B4 000:095.499 - 0.004ms returns 10000
T71B4 000:095.503 JLINK_GetDLLVersion()
T71B4 000:095.506 - 0.004ms returns 78200
T71B4 000:095.510 JLINK_GetOEMString(...)
T71B4 000:095.513 JLINK_GetFirmwareString(...)
T71B4 000:095.516 - 0.004ms
T71B4 000:099.573 JLINK_GetDLLVersion()
T71B4 000:099.583 - 0.011ms returns 78200
T71B4 000:099.587 JLINK_GetCompileDateTime()
T71B4 000:099.590 - 0.004ms
T71B4 000:100.709 JLINK_GetFirmwareString(...)
T71B4 000:100.718 - 0.010ms
T71B4 000:101.571 JLINK_GetHardwareVersion()
T71B4 000:101.577 - 0.007ms returns 10000
T71B4 000:102.411 JLINK_GetSN()
T71B4 000:102.417 - 0.007ms returns 24100557
T71B4 000:104.862 JLINK_GetOEMString(...)
T71B4 000:105.859 JLINK_GetId()
T71B4 000:108.664   Found SW-DP with ID 0x0BC11477
T71B4 000:116.072   DPIDR: 0x0BC11477
T71B4 000:116.924   CoreSight SoC-400 or earlier
T71B4 000:119.570   Scanning AP map to find all available APs
T71B4 000:122.232   AP[1]: Stopped AP scan as end of AP map has been reached
T71B4 000:123.111   AP[0]: AHB-AP (IDR: 0x04770031)
T71B4 000:124.155   Iterating through AP map to find AHB-AP to use
T71B4 000:127.282   AP[0]: Core found
T71B4 000:128.167   AP[0]: AHB-AP ROM base: 0xE00FF000
T71B4 000:130.247   CPUID register: 0x410CC601. Implementer code: 0x41 (ARM)
T71B4 000:131.125   Found Cortex-M0 r0p1, Little endian.
T71B4 000:132.013   -- Max. mem block: 0x00002A00
T71B4 000:132.418   CPU_ReadMem(4 bytes @ 0xE000EDF0)
T71B4 000:133.399   CPU_WriteMem(4 bytes @ 0xE000EDF0)
T71B4 000:134.466   CPU_ReadMem(4 bytes @ 0xE0002000)
T71B4 000:136.586   FPUnit: 4 code (BP) slots and 0 literal slots
T71B4 000:136.596   CPU_ReadMem(4 bytes @ 0xE000EDFC)
T71B4 000:137.541   CPU_WriteMem(4 bytes @ 0xE000EDFC)
T71B4 000:138.636   CPU_ReadMem(4 bytes @ 0xE0001000)
T71B4 000:139.603   CPU_WriteMem(4 bytes @ 0xE0001000)
T71B4 000:142.040   CoreSight components:
T71B4 000:143.970   ROMTbl[0] @ E00FF000
T71B4 000:143.988   CPU_ReadMem(64 bytes @ 0xE00FF000)
T71B4 000:146.449   CPU_ReadMem(32 bytes @ 0xE000EFE0)
T71B4 000:151.459   [0][0]: E000E000 CID B105E00D PID 000BB008 SCS
T71B4 000:151.473   CPU_ReadMem(32 bytes @ 0xE0001FE0)
T71B4 000:154.447   [0][1]: E0001000 CID B105E00D PID 000BB00A DWT
T71B4 000:154.457   CPU_ReadMem(32 bytes @ 0xE0002FE0)
T71B4 000:157.157   [0][2]: E0002000 CID B105E00D PID 000BB00B FPB
T71B4 000:157.746 - 51.898ms returns 0x0BC11477
T71B4 000:157.770 JLINK_GetDeviceFamily
T71B4 000:157.773 - 0.004ms returns 6
T71B4 000:158.682 JLINK_ReadMem(0xE00FFFF0, 0x10 Bytes, ...)
T71B4 000:158.708   CPU_ReadMem(16 bytes @ 0xE00FFFF0)
T71B4 000:160.056   Data:  0D 00 00 00 10 00 00 00 05 00 00 00 B1 00 00 00
T71B4 000:160.084 - 1.404ms returns 0
T71B4 000:160.089 JLINK_ReadMem(0xE00FFFD0, 0x20 Bytes, ...)
T71B4 000:160.094   CPU_ReadMem(32 bytes @ 0xE00FFFD0)
T71B4 000:161.734   Data:  04 00 00 00 00 00 00 00 00 00 00 00 00 00 00 00 ...
T71B4 000:161.758 - 1.677ms returns 0
T71B4 000:161.781 JLINK_ReadMem(0xE00FF000, 0x18 Bytes, ...)
T71B4 000:161.802   CPU_ReadMem(24 bytes @ 0xE00FF000)
T71B4 000:163.310   Data:  03 F0 F0 FF 03 20 F0 FF 03 30 F0 FF 00 00 00 00 ...
T71B4 000:163.334 - 1.560ms returns 0
T71B4 000:163.349 JLINK_ReadMemU32(0xE000ED00, 0x1 Items)
T71B4 000:163.354   CPU_ReadMem(4 bytes @ 0xE000ED00)
T71B4 000:164.316   Data:  01 C6 0C 41
T71B4 000:164.334   Debug reg: CPUID
T71B4 000:164.338 - 0.990ms returns 1 (0x1)
T71B4 000:164.344 JLINK_HasError()
T71B4 000:164.349 JLINK_SetResetType(JLINKARM_CM3_RESET_TYPE_NORMAL)
T71B4 000:164.352 - 0.004ms returns JLINKARM_CM3_RESET_TYPE_NORMAL
T71B4 000:164.356 JLINK_Reset()
T71B4 000:164.375   CPU is running
T71B4 000:164.381   CPU_WriteMem(4 bytes @ 0xE000EDF0)
T71B4 000:165.435   CPU is running
T71B4 000:165.442   CPU_WriteMem(4 bytes @ 0xE000EDFC)
T71B4 000:167.415   Reset: Halt core after reset via DEMCR.VC_CORERESET.
T71B4 000:169.442   Reset: Reset device via AIRCR.SYSRESETREQ.
T71B4 000:169.451   CPU is running
T71B4 000:169.456   CPU_WriteMem(4 bytes @ 0xE000ED0C)
T71B4 000:222.854   CPU_ReadMem(4 bytes @ 0xE000EDF0)
T71B4 000:223.914   CPU_ReadMem(4 bytes @ 0xE000EDF0)
T71B4 000:224.931   CPU is running
T71B4 000:224.956   CPU_WriteMem(4 bytes @ 0xE000EDF0)
T71B4 000:226.107   CPU is running
T71B4 000:226.142   CPU_WriteMem(4 bytes @ 0xE000EDFC)
T71B4 000:232.358   CPU_ReadMem(4 bytes @ 0xE000EDF0)
T71B4 000:244.268   CPU_WriteMem(4 bytes @ 0xE0002000)
T71B4 000:245.273   CPU_ReadMem(4 bytes @ 0xE000EDFC)
T71B4 000:246.328   CPU_ReadMem(4 bytes @ 0xE0001000)
T71B4 000:247.329   CPU_WriteMem(4 bytes @ 0xE0001000)
T71B4 000:248.372 - 84.022ms
T71B4 000:248.400 JLINK_Halt()
T71B4 000:248.409 - 0.013ms returns 0x00
T71B4 000:248.473 JLINK_IsHalted()
T71B4 000:248.484 - 0.014ms returns TRUE
T71B4 000:248.495 JLINK_ReadMemU32(0xE000EDF0, 0x1 Items)
T71B4 000:248.515   CPU_ReadMem(4 bytes @ 0xE000EDF0)
T71B4 000:249.543   Data:  03 00 03 00
T71B4 000:249.564   Debug reg: DHCSR
T71B4 000:249.576 - 1.085ms returns 1 (0x1)
T71B4 000:249.604 JLINK_WriteU32_64(0xE000EDF0, 0xA05F0003)
T71B4 000:249.620   Debug reg: DHCSR
T71B4 000:250.086   CPU_WriteMem(4 bytes @ 0xE000EDF0)
T71B4 000:251.238 - 1.641ms returns 0 (0x00000000)
T71B4 000:251.256 JLINK_WriteU32_64(0xE000EDFC, 0x01000000)
T71B4 000:251.266   Debug reg: DEMCR
T71B4 000:251.284   CPU_WriteMem(4 bytes @ 0xE000EDFC)
T71B4 000:252.391 - 1.148ms returns 0 (0x00000000)
T71B4 000:261.724 JLINK_GetHWStatus(...)
T71B4 000:262.207 - 0.484ms returns 0
T71B4 000:264.679 JLINK_GetNumBPUnits(Type = 0xFFFFFF00)
T71B4 000:264.686 - 0.009ms returns 0x04
T71B4 000:264.690 JLINK_GetNumBPUnits(Type = 0xF0)
T71B4 000:264.693 - 0.004ms returns 0x2000
T71B4 000:264.697 JLINK_GetNumWPUnits()
T71B4 000:264.700 - 0.004ms returns 2
T71B4 000:267.151 JLINK_GetSpeed()
T71B4 000:267.157 - 0.008ms returns 500
T71B4 000:268.906 JLINK_ReadMemU32(0xE000E004, 0x1 Items)
T71B4 000:268.924   CPU_ReadMem(4 bytes @ 0xE000E004)
T71B4 000:269.986   Data:  00 00 00 00
T71B4 000:270.013 - 1.115ms returns 1 (0x1)
T71B4 000:270.049 JLINK_Halt()
T71B4 000:270.055 - 0.007ms returns 0x00
T71B4 000:270.059 JLINK_IsHalted()
T71B4 000:270.062 - 0.004ms returns TRUE
T71B4 000:271.556 JLINK_WriteMem(0x20000000, 0x3F0 Bytes, ...)
T71B4 000:271.563   Data:  00 BE 0A E0 0D 78 2D 06 68 40 08 24 40 00 00 D3 ...
T71B4 000:271.729   CPU_WriteMem(1008 bytes @ 0x20000000)
T71B4 000:293.399 - 21.865ms returns 0x3F0
T71B4 000:293.514 JLINK_HasError()
T71B4 000:293.529 JLINK_WriteReg(R0, 0x08000000)
T71B4 000:293.560 - 0.035ms returns 0
T71B4 000:293.572 JLINK_WriteReg(R1, 0x007A1200)
T71B4 000:293.582 - 0.015ms returns 0
T71B4 000:293.594 JLINK_WriteReg(R2, 0x00000001)
T71B4 000:293.604 - 0.014ms returns 0
T71B4 000:293.615 JLINK_WriteReg(R3, 0x00000000)
T71B4 000:293.625 - 0.014ms returns 0
T71B4 000:293.636 JLINK_WriteReg(R4, 0x00000000)
T71B4 000:293.646 - 0.014ms returns 0
T71B4 000:293.657 JLINK_WriteReg(R5, 0x00000000)
T71B4 000:293.667 - 0.014ms returns 0
T71B4 000:293.678 JLINK_WriteReg(R6, 0x00000000)
T71B4 000:293.688 - 0.014ms returns 0
T71B4 000:293.699 JLINK_WriteReg(R7, 0x00000000)
T71B4 000:293.709 - 0.024ms returns 0
T71B4 000:293.731 JLINK_WriteReg(R8, 0x00000000)
T71B4 000:293.758 - 0.031ms returns 0
T71B4 000:293.769 JLINK_WriteReg(R9, 0x200003E8)
T71B4 000:293.779 - 0.014ms returns 0
T71B4 000:293.790 JLINK_WriteReg(R10, 0x00000000)
T71B4 000:293.800 - 0.014ms returns 0
T71B4 000:293.811 JLINK_WriteReg(R11, 0x00000000)
T71B4 000:293.821 - 0.014ms returns 0
T71B4 000:293.832 JLINK_WriteReg(R12, 0x00000000)
T71B4 000:293.842 - 0.014ms returns 0
T71B4 000:293.853 JLINK_WriteReg(R13 (SP), 0x20001000)
T71B4 000:293.865 - 0.016ms returns 0
T71B4 000:293.876 JLINK_WriteReg(R14, 0x20000001)
T71B4 000:293.886 - 0.014ms returns 0
T71B4 000:293.897 JLINK_WriteReg(R15 (PC), 0x200001D4)
T71B4 000:293.915 - 0.022ms returns 0
T71B4 000:293.926 JLINK_WriteReg(XPSR, 0x01000000)
T71B4 000:293.936 - 0.014ms returns 0
T71B4 000:293.947 JLINK_WriteReg(MSP, 0x20001000)
T71B4 000:293.957 - 0.014ms returns 0
T71B4 000:293.968 JLINK_WriteReg(PSP, 0x20001000)
T71B4 000:293.978 - 0.014ms returns 0
T71B4 000:293.989 JLINK_WriteReg(CFBP, 0x00000000)
T71B4 000:293.999 - 0.014ms returns 0
T71B4 000:294.010 JLINK_SetBPEx(Addr = 0x20000000, Type = 0xFFFFFFF2)
T71B4 000:294.041   CPU_ReadMem(4 bytes @ 0x20000000)
T71B4 000:295.131   CPU_WriteMem(4 bytes @ 0x20000000)
T71B4 000:296.236   CPU_ReadMem(4 bytes @ 0x20000000)
T71B4 000:297.276   CPU_WriteMem(4 bytes @ 0x20000000)
T71B4 000:298.325   CPU_ReadMem(2 bytes @ 0x20000000)
T71B4 000:299.468 - 5.480ms returns 0x00000001
T71B4 000:299.506 JLINK_Go()
T71B4 000:299.528   CPU_WriteMem(2 bytes @ 0x20000000)
T71B4 000:300.689   CPU_ReadMem(4 bytes @ 0xE0001000)
T71B4 000:301.709   CPU_WriteMem(4 bytes @ 0xE0001000)
T71B4 000:302.706   CPU_WriteMem(4 bytes @ 0xE0002008)
T71B4 000:302.716   CPU_WriteMem(4 bytes @ 0xE000200C)
T71B4 000:302.723   CPU_WriteMem(4 bytes @ 0xE0002010)
T71B4 000:302.730   CPU_WriteMem(4 bytes @ 0xE0002014)
T71B4 000:305.960   CPU_WriteMem(4 bytes @ 0xE0001004)
T71B4 000:316.701 - 17.211ms
T71B4 000:316.728 JLINK_IsHalted()
T71B4 000:327.556   CPU_ReadMem(2 bytes @ 0x20000000)
T71B4 000:328.594 - 11.876ms returns TRUE
T71B4 000:328.618 JLINK_ReadReg(R15 (PC))
T71B4 000:328.632 - 0.018ms returns 0x20000000
T71B4 000:328.755 JLINK_ClrBPEx(BPHandle = 0x00000001)
T71B4 000:328.767 - 0.016ms returns 0x00
T71B4 000:328.778 JLINK_ReadReg(R0)
T71B4 000:328.788 - 0.014ms returns 0x00000000
T71B4 000:329.372 JLINK_HasError()
T71B4 000:329.390 JLINK_WriteReg(R0, 0x08000000)
T71B4 000:329.405 - 0.019ms returns 0
T71B4 000:329.416 JLINK_WriteReg(R1, 0x007A1200)
T71B4 000:329.427 - 0.014ms returns 0
T71B4 000:329.438 JLINK_WriteReg(R2, 0x00000001)
T71B4 000:329.448 - 0.014ms returns 0
T71B4 000:329.459 JLINK_WriteReg(R3, 0x00000000)
T71B4 000:329.469 - 0.014ms returns 0
T71B4 000:329.480 JLINK_WriteReg(R4, 0x00000000)
T71B4 000:329.489 - 0.014ms returns 0
T71B4 000:329.501 JLINK_WriteReg(R5, 0x00000000)
T71B4 000:329.510 - 0.014ms returns 0
T71B4 000:329.522 JLINK_WriteReg(R6, 0x00000000)
T71B4 000:329.531 - 0.014ms returns 0
T71B4 000:329.542 JLINK_WriteReg(R7, 0x00000000)
T71B4 000:329.560 - 0.026ms returns 0
T71B4 000:329.575 JLINK_WriteReg(R8, 0x00000000)
T71B4 000:329.585 - 0.014ms returns 0
T71B4 000:329.596 JLINK_WriteReg(R9, 0x200003E8)
T71B4 000:329.606 - 0.015ms returns 0
T71B4 000:329.617 JLINK_WriteReg(R10, 0x00000000)
T71B4 000:329.627 - 0.013ms returns 0
T71B4 000:329.637 JLINK_WriteReg(R11, 0x00000000)
T71B4 000:329.646 - 0.013ms returns 0
T71B4 000:329.657 JLINK_WriteReg(R12, 0x00000000)
T71B4 000:329.666 - 0.013ms returns 0
T71B4 000:329.677 JLINK_WriteReg(R13 (SP), 0x20001000)
T71B4 000:329.687 - 0.014ms returns 0
T71B4 000:329.697 JLINK_WriteReg(R14, 0x20000001)
T71B4 000:329.706 - 0.013ms returns 0
T71B4 000:329.717 JLINK_WriteReg(R15 (PC), 0x20000234)
T71B4 000:329.726 - 0.013ms returns 0
T71B4 000:329.737 JLINK_WriteReg(XPSR, 0x01000000)
T71B4 000:329.746 - 0.013ms returns 0
T71B4 000:329.757 JLINK_WriteReg(MSP, 0x20001000)
T71B4 000:329.766 - 0.013ms returns 0
T71B4 000:329.776 JLINK_WriteReg(PSP, 0x20001000)
T71B4 000:329.785 - 0.013ms returns 0
T71B4 000:329.796 JLINK_WriteReg(CFBP, 0x00000000)
T71B4 000:329.805 - 0.013ms returns 0
T71B4 000:329.815 JLINK_SetBPEx(Addr = 0x20000000, Type = 0xFFFFFFF2)
T71B4 000:329.827 - 0.015ms returns 0x00000002
T71B4 000:329.838 JLINK_Go()
T71B4 000:329.858   CPU_ReadMem(4 bytes @ 0xE0001000)
T71B4 000:340.958 - 11.139ms
T71B4 000:340.984 JLINK_IsHalted()
T71B4 000:344.785 - 3.814ms returns FALSE
T71B4 000:344.814 JLINK_HasError()
T71B4 000:354.753 JLINK_IsHalted()
T71B4 000:365.554   CPU_ReadMem(2 bytes @ 0x20000000)
T71B4 000:366.588 - 11.854ms returns TRUE
T71B4 000:366.619 JLINK_ReadReg(R15 (PC))
T71B4 000:366.635 - 0.021ms returns 0x20000000
T71B4 000:366.646 JLINK_ClrBPEx(BPHandle = 0x00000002)
T71B4 000:366.656 - 0.014ms returns 0x00
T71B4 000:366.667 JLINK_ReadReg(R0)
T71B4 000:366.676 - 0.013ms returns 0x00000000
T71B4 000:420.814 JLINK_HasError()
T71B4 000:420.853 JLINK_WriteReg(R0, 0x00000001)
T71B4 000:420.874 - 0.025ms returns 0
T71B4 000:420.887 JLINK_WriteReg(R1, 0x007A1200)
T71B4 000:420.898 - 0.015ms returns 0
T71B4 000:420.909 JLINK_WriteReg(R2, 0x00000001)
T71B4 000:420.919 - 0.014ms returns 0
T71B4 000:420.930 JLINK_WriteReg(R3, 0x00000000)
T71B4 000:420.940 - 0.014ms returns 0
T71B4 000:420.951 JLINK_WriteReg(R4, 0x00000000)
T71B4 000:420.961 - 0.014ms returns 0
T71B4 000:420.972 JLINK_WriteReg(R5, 0x00000000)
T71B4 000:420.982 - 0.014ms returns 0
T71B4 000:420.993 JLINK_WriteReg(R6, 0x00000000)
T71B4 000:421.003 - 0.014ms returns 0
T71B4 000:421.014 JLINK_WriteReg(R7, 0x00000000)
T71B4 000:421.024 - 0.014ms returns 0
T71B4 000:421.035 JLINK_WriteReg(R8, 0x00000000)
T71B4 000:421.045 - 0.014ms returns 0
T71B4 000:421.056 JLINK_WriteReg(R9, 0x200003E8)
T71B4 000:421.065 - 0.014ms returns 0
T71B4 000:421.076 JLINK_WriteReg(R10, 0x00000000)
T71B4 000:421.086 - 0.014ms returns 0
T71B4 000:421.097 JLINK_WriteReg(R11, 0x00000000)
T71B4 000:421.107 - 0.014ms returns 0
T71B4 000:421.118 JLINK_WriteReg(R12, 0x00000000)
T71B4 000:421.128 - 0.014ms returns 0
T71B4 000:421.139 JLINK_WriteReg(R13 (SP), 0x20001000)
T71B4 000:421.151 - 0.016ms returns 0
T71B4 000:421.162 JLINK_WriteReg(R14, 0x20000001)
T71B4 000:421.172 - 0.014ms returns 0
T71B4 000:421.183 JLINK_WriteReg(R15 (PC), 0x2000021A)
T71B4 000:421.193 - 0.014ms returns 0
T71B4 000:421.203 JLINK_WriteReg(XPSR, 0x01000000)
T71B4 000:421.212 - 0.012ms returns 0
T71B4 000:421.222 JLINK_WriteReg(MSP, 0x20001000)
T71B4 000:421.230 - 0.012ms returns 0
T71B4 000:421.240 JLINK_WriteReg(PSP, 0x20001000)
T71B4 000:421.249 - 0.012ms returns 0
T71B4 000:421.258 JLINK_WriteReg(CFBP, 0x00000000)
T71B4 000:421.267 - 0.012ms returns 0
T71B4 000:421.286 JLINK_SetBPEx(Addr = 0x20000000, Type = 0xFFFFFFF2)
T71B4 000:421.297 - 0.015ms returns 0x00000003
T71B4 000:421.308 JLINK_Go()
T71B4 000:421.333   CPU_ReadMem(4 bytes @ 0xE0001000)
T71B4 000:432.045 - 10.757ms
T71B4 000:432.082 JLINK_IsHalted()
T71B4 000:442.887   CPU_ReadMem(2 bytes @ 0x20000000)
T71B4 000:444.067 - 11.997ms returns TRUE
T71B4 000:444.164 JLINK_ReadReg(R15 (PC))
T71B4 000:444.184 - 0.024ms returns 0x20000000
T71B4 000:444.244 JLINK_ClrBPEx(BPHandle = 0x00000003)
T71B4 000:444.255 - 0.015ms returns 0x00
T71B4 000:444.267 JLINK_ReadReg(R0)
T71B4 000:444.278 - 0.014ms returns 0x00000000
T71B4 000:450.393 JLINK_WriteMem(0x20000000, 0x3F0 Bytes, ...)
T71B4 000:450.405   Data:  00 BE 0A E0 0D 78 2D 06 68 40 08 24 40 00 00 D3 ...
T71B4 000:450.422   CPU_WriteMem(1008 bytes @ 0x20000000)
T71B4 000:471.895 - 21.527ms returns 0x3F0
T71B4 000:471.998 JLINK_HasError()
T71B4 000:472.014 JLINK_WriteReg(R0, 0x08000000)
T71B4 000:472.032 - 0.022ms returns 0
T71B4 000:472.044 JLINK_WriteReg(R1, 0x007A1200)
T71B4 000:472.055 - 0.015ms returns 0
T71B4 000:472.067 JLINK_WriteReg(R2, 0x00000002)
T71B4 000:472.077 - 0.014ms returns 0
T71B4 000:472.088 JLINK_WriteReg(R3, 0x00000000)
T71B4 000:472.098 - 0.014ms returns 0
T71B4 000:472.109 JLINK_WriteReg(R4, 0x00000000)
T71B4 000:472.119 - 0.014ms returns 0
T71B4 000:472.130 JLINK_WriteReg(R5, 0x00000000)
T71B4 000:472.139 - 0.014ms returns 0
T71B4 000:472.151 JLINK_WriteReg(R6, 0x00000000)
T71B4 000:472.160 - 0.014ms returns 0
T71B4 000:472.172 JLINK_WriteReg(R7, 0x00000000)
T71B4 000:472.181 - 0.014ms returns 0
T71B4 000:472.193 JLINK_WriteReg(R8, 0x00000000)
T71B4 000:472.203 - 0.014ms returns 0
T71B4 000:472.214 JLINK_WriteReg(R9, 0x200003E8)
T71B4 000:472.224 - 0.014ms returns 0
T71B4 000:472.235 JLINK_WriteReg(R10, 0x00000000)
T71B4 000:472.245 - 0.014ms returns 0
T71B4 000:472.256 JLINK_WriteReg(R11, 0x00000000)
T71B4 000:472.266 - 0.014ms returns 0
T71B4 000:472.277 JLINK_WriteReg(R12, 0x00000000)
T71B4 000:472.287 - 0.014ms returns 0
T71B4 000:472.298 JLINK_WriteReg(R13 (SP), 0x20001000)
T71B4 000:472.309 - 0.015ms returns 0
T71B4 000:472.320 JLINK_WriteReg(R14, 0x20000001)
T71B4 000:472.330 - 0.014ms returns 0
T71B4 000:472.341 JLINK_WriteReg(R15 (PC), 0x200001D4)
T71B4 000:472.364 - 0.027ms returns 0
T71B4 000:472.376 JLINK_WriteReg(XPSR, 0x01000000)
T71B4 000:472.386 - 0.014ms returns 0
T71B4 000:472.397 JLINK_WriteReg(MSP, 0x20001000)
T71B4 000:472.407 - 0.014ms returns 0
T71B4 000:472.418 JLINK_WriteReg(PSP, 0x20001000)
T71B4 000:472.428 - 0.014ms returns 0
T71B4 000:472.439 JLINK_WriteReg(CFBP, 0x00000000)
T71B4 000:472.449 - 0.015ms returns 0
T71B4 000:472.462 JLINK_SetBPEx(Addr = 0x20000000, Type = 0xFFFFFFF2)
T71B4 000:472.482   CPU_ReadMem(4 bytes @ 0x20000000)
T71B4 000:473.527   CPU_WriteMem(4 bytes @ 0x20000000)
T71B4 000:474.656   CPU_ReadMem(4 bytes @ 0x20000000)
T71B4 000:475.735   CPU_WriteMem(4 bytes @ 0x20000000)
T71B4 000:476.796   CPU_ReadMem(2 bytes @ 0x20000000)
T71B4 000:477.788 - 5.333ms returns 0x00000004
T71B4 000:477.807 JLINK_Go()
T71B4 000:477.825   CPU_WriteMem(2 bytes @ 0x20000000)
T71B4 000:478.951   CPU_ReadMem(4 bytes @ 0xE0001000)
T71B4 000:489.981 - 12.197ms
T71B4 000:490.016 JLINK_IsHalted()
T71B4 000:500.977   CPU_ReadMem(2 bytes @ 0x20000000)
T71B4 000:502.228 - 12.226ms returns TRUE
T71B4 000:502.259 JLINK_ReadReg(R15 (PC))
T71B4 000:502.277 - 0.023ms returns 0x20000000
T71B4 000:502.290 JLINK_ClrBPEx(BPHandle = 0x00000004)
T71B4 000:502.301 - 0.016ms returns 0x00
T71B4 000:502.314 JLINK_ReadReg(R0)
T71B4 000:502.324 - 0.015ms returns 0x00000000
T71B4 000:504.307 JLINK_WriteMem(0x200003F0, 0x10 Bytes, ...)
T71B4 000:504.331   Data:  88 07 00 20 D5 00 00 08 27 0B 00 08 25 0B 00 08
T71B4 000:504.365   CPU_WriteMem(16 bytes @ 0x200003F0)
T71B4 000:505.718 - 1.429ms returns 0x10
T71B4 000:505.750 JLINK_WriteMem(0x20000400, 0x70 Bytes, ...)
T71B4 000:505.762   Data:  00 00 00 00 00 00 00 00 00 00 00 00 00 00 00 00 ...
T71B4 000:505.793   CPU_WriteMem(112 bytes @ 0x20000400)
T71B4 000:509.253 - 3.524ms returns 0x70
T71B4 000:509.289 JLINK_HasError()
T71B4 000:509.303 JLINK_WriteReg(R0, 0x08000000)
T71B4 000:509.321 - 0.022ms returns 0
T71B4 000:509.332 JLINK_WriteReg(R1, 0x00000080)
T71B4 000:509.343 - 0.015ms returns 0
T71B4 000:509.355 JLINK_WriteReg(R2, 0x200003F0)
T71B4 000:509.373 - 0.026ms returns 0
T71B4 000:509.388 JLINK_WriteReg(R3, 0x00000000)
T71B4 000:509.398 - 0.014ms returns 0
T71B4 000:509.409 JLINK_WriteReg(R4, 0x00000000)
T71B4 000:509.419 - 0.014ms returns 0
T71B4 000:509.430 JLINK_WriteReg(R5, 0x00000000)
T71B4 000:509.440 - 0.014ms returns 0
T71B4 000:509.451 JLINK_WriteReg(R6, 0x00000000)
T71B4 000:509.461 - 0.014ms returns 0
T71B4 000:509.472 JLINK_WriteReg(R7, 0x00000000)
T71B4 000:509.482 - 0.014ms returns 0
T71B4 000:509.493 JLINK_WriteReg(R8, 0x00000000)
T71B4 000:509.503 - 0.014ms returns 0
T71B4 000:509.514 JLINK_WriteReg(R9, 0x200003E8)
T71B4 000:509.524 - 0.014ms returns 0
T71B4 000:509.535 JLINK_WriteReg(R10, 0x00000000)
T71B4 000:509.545 - 0.014ms returns 0
T71B4 000:509.556 JLINK_WriteReg(R11, 0x00000000)
T71B4 000:509.566 - 0.014ms returns 0
T71B4 000:509.577 JLINK_WriteReg(R12, 0x00000000)
T71B4 000:509.587 - 0.014ms returns 0
T71B4 000:509.598 JLINK_WriteReg(R13 (SP), 0x20001000)
T71B4 000:509.609 - 0.015ms returns 0
T71B4 000:509.620 JLINK_WriteReg(R14, 0x20000001)
T71B4 000:509.630 - 0.014ms returns 0
T71B4 000:509.641 JLINK_WriteReg(R15 (PC), 0x20000320)
T71B4 000:509.651 - 0.014ms returns 0
T71B4 000:509.662 JLINK_WriteReg(XPSR, 0x01000000)
T71B4 000:509.672 - 0.014ms returns 0
T71B4 000:509.684 JLINK_WriteReg(MSP, 0x20001000)
T71B4 000:509.693 - 0.014ms returns 0
T71B4 000:509.704 JLINK_WriteReg(PSP, 0x20001000)
T71B4 000:509.714 - 0.014ms returns 0
T71B4 000:509.725 JLINK_WriteReg(CFBP, 0x00000000)
T71B4 000:509.735 - 0.014ms returns 0
T71B4 000:509.746 JLINK_SetBPEx(Addr = 0x20000000, Type = 0xFFFFFFF2)
T71B4 000:509.759 - 0.017ms returns 0x00000005
T71B4 000:509.770 JLINK_Go()
T71B4 000:509.792   CPU_ReadMem(4 bytes @ 0xE0001000)
T71B4 000:520.677 - 10.921ms
T71B4 000:520.702 JLINK_IsHalted()
T71B4 000:531.516   CPU_ReadMem(2 bytes @ 0x20000000)
T71B4 000:532.655 - 11.966ms returns TRUE
T71B4 000:532.685 JLINK_ReadReg(R15 (PC))
T71B4 000:532.701 - 0.021ms returns 0x20000000
T71B4 000:532.766 JLINK_ClrBPEx(BPHandle = 0x00000005)
T71B4 000:532.778 - 0.016ms returns 0x00
T71B4 000:532.790 JLINK_ReadReg(R0)
T71B4 000:532.800 - 0.014ms returns 0x00000000
T71B4 000:533.679 JLINK_WriteMem(0x200003F0, 0x10 Bytes, ...)
T71B4 000:533.696   Data:  E7 00 00 08 E7 00 00 08 00 00 00 00 E7 00 00 08
T71B4 000:533.723   CPU_WriteMem(16 bytes @ 0x200003F0)
T71B4 000:535.242 - 1.574ms returns 0x10
T71B4 000:535.264 JLINK_WriteMem(0x20000400, 0x70 Bytes, ...)
T71B4 000:535.276   Data:  00 00 00 00 E7 00 00 08 E7 00 00 08 E7 00 00 08 ...
T71B4 000:535.305   CPU_WriteMem(112 bytes @ 0x20000400)
T71B4 000:538.733 - 3.479ms returns 0x70
T71B4 000:538.753 JLINK_HasError()
T71B4 000:538.767 JLINK_WriteReg(R0, 0x08000080)
T71B4 000:538.780 - 0.018ms returns 0
T71B4 000:538.792 JLINK_WriteReg(R1, 0x00000080)
T71B4 000:538.802 - 0.014ms returns 0
T71B4 000:538.814 JLINK_WriteReg(R2, 0x200003F0)
T71B4 000:538.823 - 0.014ms returns 0
T71B4 000:538.834 JLINK_WriteReg(R3, 0x00000000)
T71B4 000:538.844 - 0.014ms returns 0
T71B4 000:538.855 JLINK_WriteReg(R4, 0x00000000)
T71B4 000:538.865 - 0.014ms returns 0
T71B4 000:538.876 JLINK_WriteReg(R5, 0x00000000)
T71B4 000:538.886 - 0.014ms returns 0
T71B4 000:538.897 JLINK_WriteReg(R6, 0x00000000)
T71B4 000:538.907 - 0.014ms returns 0
T71B4 000:538.918 JLINK_WriteReg(R7, 0x00000000)
T71B4 000:538.927 - 0.014ms returns 0
T71B4 000:538.938 JLINK_WriteReg(R8, 0x00000000)
T71B4 000:538.948 - 0.014ms returns 0
T71B4 000:538.959 JLINK_WriteReg(R9, 0x200003E8)
T71B4 000:538.969 - 0.014ms returns 0
T71B4 000:538.980 JLINK_WriteReg(R10, 0x00000000)
T71B4 000:538.990 - 0.014ms returns 0
T71B4 000:539.001 JLINK_WriteReg(R11, 0x00000000)
T71B4 000:539.011 - 0.014ms returns 0
T71B4 000:539.022 JLINK_WriteReg(R12, 0x00000000)
T71B4 000:539.032 - 0.014ms returns 0
T71B4 000:539.043 JLINK_WriteReg(R13 (SP), 0x20001000)
T71B4 000:539.054 - 0.015ms returns 0
T71B4 000:539.065 JLINK_WriteReg(R14, 0x20000001)
T71B4 000:539.075 - 0.015ms returns 0
T71B4 000:539.086 JLINK_WriteReg(R15 (PC), 0x20000320)
T71B4 000:539.108 - 0.026ms returns 0
T71B4 000:539.119 JLINK_WriteReg(XPSR, 0x01000000)
T71B4 000:539.128 - 0.013ms returns 0
T71B4 000:539.139 JLINK_WriteReg(MSP, 0x20001000)
T71B4 000:539.148 - 0.013ms returns 0
T71B4 000:539.158 JLINK_WriteReg(PSP, 0x20001000)
T71B4 000:539.168 - 0.013ms returns 0
T71B4 000:539.178 JLINK_WriteReg(CFBP, 0x00000000)
T71B4 000:539.187 - 0.013ms returns 0
T71B4 000:539.197 JLINK_SetBPEx(Addr = 0x20000000, Type = 0xFFFFFFF2)
T71B4 000:539.208 - 0.015ms returns 0x00000006
T71B4 000:539.219 JLINK_Go()
T71B4 000:539.238   CPU_ReadMem(4 bytes @ 0xE0001000)
T71B4 000:550.083 - 10.876ms
T71B4 000:550.106 JLINK_IsHalted()
T71B4 000:561.009   CPU_ReadMem(2 bytes @ 0x20000000)
T71B4 000:562.037 - 11.938ms returns TRUE
T71B4 000:562.058 JLINK_ReadReg(R15 (PC))
T71B4 000:562.072 - 0.018ms returns 0x20000000
T71B4 000:562.135 JLINK_ClrBPEx(BPHandle = 0x00000006)
T71B4 000:562.146 - 0.016ms returns 0x00
T71B4 000:562.158 JLINK_ReadReg(R0)
T71B4 000:562.168 - 0.014ms returns 0x00000000
T71B4 000:563.026 JLINK_WriteMem(0x200003F0, 0x10 Bytes, ...)
T71B4 000:563.043   Data:  F6 E7 10 B5 13 46 0A 46 04 46 19 46 FF F7 F0 FF
T71B4 000:563.067   CPU_WriteMem(16 bytes @ 0x200003F0)
T71B4 000:564.371 - 1.352ms returns 0x10
T71B4 000:564.388 JLINK_WriteMem(0x20000400, 0x70 Bytes, ...)
T71B4 000:564.399   Data:  20 46 10 BD 70 B5 04 46 00 29 03 D0 00 20 20 22 ...
T71B4 000:564.417   CPU_WriteMem(112 bytes @ 0x20000400)
T71B4 000:567.791 - 3.422ms returns 0x70
T71B4 000:567.824 JLINK_HasError()
T71B4 000:567.838 JLINK_WriteReg(R0, 0x08000100)
T71B4 000:567.856 - 0.022ms returns 0
T71B4 000:567.868 JLINK_WriteReg(R1, 0x00000080)
T71B4 000:567.879 - 0.015ms returns 0
T71B4 000:567.890 JLINK_WriteReg(R2, 0x200003F0)
T71B4 000:567.900 - 0.014ms returns 0
T71B4 000:567.911 JLINK_WriteReg(R3, 0x00000000)
T71B4 000:567.921 - 0.014ms returns 0
T71B4 000:567.932 JLINK_WriteReg(R4, 0x00000000)
T71B4 000:567.942 - 0.014ms returns 0
T71B4 000:567.953 JLINK_WriteReg(R5, 0x00000000)
T71B4 000:567.963 - 0.014ms returns 0
T71B4 000:567.974 JLINK_WriteReg(R6, 0x00000000)
T71B4 000:567.984 - 0.014ms returns 0
T71B4 000:567.995 JLINK_WriteReg(R7, 0x00000000)
T71B4 000:568.004 - 0.014ms returns 0
T71B4 000:568.016 JLINK_WriteReg(R8, 0x00000000)
T71B4 000:568.025 - 0.014ms returns 0
T71B4 000:568.037 JLINK_WriteReg(R9, 0x200003E8)
T71B4 000:568.046 - 0.014ms returns 0
T71B4 000:568.057 JLINK_WriteReg(R10, 0x00000000)
T71B4 000:568.067 - 0.014ms returns 0
T71B4 000:568.078 JLINK_WriteReg(R11, 0x00000000)
T71B4 000:568.102 - 0.028ms returns 0
T71B4 000:568.113 JLINK_WriteReg(R12, 0x00000000)
T71B4 000:568.123 - 0.014ms returns 0
T71B4 000:568.134 JLINK_WriteReg(R13 (SP), 0x20001000)
T71B4 000:568.145 - 0.015ms returns 0
T71B4 000:568.156 JLINK_WriteReg(R14, 0x20000001)
T71B4 000:568.166 - 0.014ms returns 0
T71B4 000:568.177 JLINK_WriteReg(R15 (PC), 0x20000320)
T71B4 000:568.187 - 0.014ms returns 0
T71B4 000:568.199 JLINK_WriteReg(XPSR, 0x01000000)
T71B4 000:568.209 - 0.014ms returns 0
T71B4 000:568.220 JLINK_WriteReg(MSP, 0x20001000)
T71B4 000:568.229 - 0.014ms returns 0
T71B4 000:568.241 JLINK_WriteReg(PSP, 0x20001000)
T71B4 000:568.250 - 0.014ms returns 0
T71B4 000:568.262 JLINK_WriteReg(CFBP, 0x00000000)
T71B4 000:568.271 - 0.014ms returns 0
T71B4 000:568.283 JLINK_SetBPEx(Addr = 0x20000000, Type = 0xFFFFFFF2)
T71B4 000:568.294 - 0.016ms returns 0x00000007
T71B4 000:568.306 JLINK_Go()
T71B4 000:568.327   CPU_ReadMem(4 bytes @ 0xE0001000)
T71B4 000:578.981 - 10.698ms
T71B4 000:579.016 JLINK_IsHalted()
T71B4 000:589.875   CPU_ReadMem(2 bytes @ 0x20000000)
T71B4 000:590.973 - 11.966ms returns TRUE
T71B4 000:590.997 JLINK_ReadReg(R15 (PC))
T71B4 000:591.010 - 0.018ms returns 0x20000000
T71B4 000:591.066 JLINK_ClrBPEx(BPHandle = 0x00000007)
T71B4 000:591.076 - 0.014ms returns 0x00
T71B4 000:591.087 JLINK_ReadReg(R0)
T71B4 000:591.096 - 0.013ms returns 0x00000000
T71B4 000:591.971 JLINK_WriteMem(0x200003F0, 0x10 Bytes, ...)
T71B4 000:591.998   Data:  D3 06 C3 58 0B 50 00 1D C0 28 F8 D1 50 07 04 49
T71B4 000:592.027   CPU_WriteMem(16 bytes @ 0x200003F0)
T71B4 000:593.394 - 1.433ms returns 0x10
T71B4 000:593.414 JLINK_WriteMem(0x20000400, 0x70 Bytes, ...)
T71B4 000:593.423   Data:  08 60 00 F0 8B FD 00 20 80 BD C0 46 00 00 00 20 ...
T71B4 000:593.440   CPU_WriteMem(112 bytes @ 0x20000400)
T71B4 000:596.786 - 3.396ms returns 0x70
T71B4 000:596.823 JLINK_HasError()
T71B4 000:596.838 JLINK_WriteReg(R0, 0x08000180)
T71B4 000:596.855 - 0.022ms returns 0
T71B4 000:596.867 JLINK_WriteReg(R1, 0x00000080)
T71B4 000:596.888 - 0.025ms returns 0
T71B4 000:596.900 JLINK_WriteReg(R2, 0x200003F0)
T71B4 000:596.910 - 0.014ms returns 0
T71B4 000:596.921 JLINK_WriteReg(R3, 0x00000000)
T71B4 000:596.931 - 0.014ms returns 0
T71B4 000:596.942 JLINK_WriteReg(R4, 0x00000000)
T71B4 000:596.952 - 0.014ms returns 0
T71B4 000:596.963 JLINK_WriteReg(R5, 0x00000000)
T71B4 000:596.973 - 0.014ms returns 0
T71B4 000:596.984 JLINK_WriteReg(R6, 0x00000000)
T71B4 000:596.994 - 0.014ms returns 0
T71B4 000:597.005 JLINK_WriteReg(R7, 0x00000000)
T71B4 000:597.015 - 0.014ms returns 0
T71B4 000:597.026 JLINK_WriteReg(R8, 0x00000000)
T71B4 000:597.035 - 0.014ms returns 0
T71B4 000:597.047 JLINK_WriteReg(R9, 0x200003E8)
T71B4 000:597.057 - 0.014ms returns 0
T71B4 000:597.068 JLINK_WriteReg(R10, 0x00000000)
T71B4 000:597.078 - 0.014ms returns 0
T71B4 000:597.089 JLINK_WriteReg(R11, 0x00000000)
T71B4 000:597.099 - 0.014ms returns 0
T71B4 000:597.110 JLINK_WriteReg(R12, 0x00000000)
T71B4 000:597.120 - 0.014ms returns 0
T71B4 000:597.131 JLINK_WriteReg(R13 (SP), 0x20001000)
T71B4 000:597.142 - 0.015ms returns 0
T71B4 000:597.153 JLINK_WriteReg(R14, 0x20000001)
T71B4 000:597.163 - 0.014ms returns 0
T71B4 000:597.174 JLINK_WriteReg(R15 (PC), 0x20000320)
T71B4 000:597.184 - 0.014ms returns 0
T71B4 000:597.195 JLINK_WriteReg(XPSR, 0x01000000)
T71B4 000:597.205 - 0.014ms returns 0
T71B4 000:597.216 JLINK_WriteReg(MSP, 0x20001000)
T71B4 000:597.226 - 0.014ms returns 0
T71B4 000:597.238 JLINK_WriteReg(PSP, 0x20001000)
T71B4 000:597.247 - 0.014ms returns 0
T71B4 000:597.259 JLINK_WriteReg(CFBP, 0x00000000)
T71B4 000:597.269 - 0.014ms returns 0
T71B4 000:597.280 JLINK_SetBPEx(Addr = 0x20000000, Type = 0xFFFFFFF2)
T71B4 000:597.292 - 0.016ms returns 0x00000008
T71B4 000:597.304 JLINK_Go()
T71B4 000:597.326   CPU_ReadMem(4 bytes @ 0xE0001000)
T71B4 000:608.329 - 11.046ms
T71B4 000:608.363 JLINK_IsHalted()
T71B4 000:619.176   CPU_ReadMem(2 bytes @ 0x20000000)
T71B4 000:620.245 - 11.907ms returns TRUE
T71B4 000:620.286 JLINK_ReadReg(R15 (PC))
T71B4 000:620.303 - 0.020ms returns 0x20000000
T71B4 000:620.360 JLINK_ClrBPEx(BPHandle = 0x00000008)
T71B4 000:620.371 - 0.014ms returns 0x00
T71B4 000:620.382 JLINK_ReadReg(R0)
T71B4 000:620.391 - 0.013ms returns 0x00000000
T71B4 000:621.154 JLINK_WriteMem(0x200003F0, 0x10 Bytes, ...)
T71B4 000:621.170   Data:  89 06 09 D5 41 68 0D 4A 53 68 54 78 19 55 51 78
T71B4 000:621.194   CPU_WriteMem(16 bytes @ 0x200003F0)
T71B4 000:622.599 - 1.456ms returns 0x10
T71B4 000:622.619 JLINK_WriteMem(0x20000400, 0x70 Bytes, ...)
T71B4 000:622.629   Data:  49 1C 51 70 02 21 11 70 01 68 C9 06 0B D5 C1 68 ...
T71B4 000:622.646   CPU_WriteMem(112 bytes @ 0x20000400)
T71B4 000:625.982 - 3.373ms returns 0x70
T71B4 000:626.001 JLINK_HasError()
T71B4 000:626.013 JLINK_WriteReg(R0, 0x08000200)
T71B4 000:626.024 - 0.015ms returns 0
T71B4 000:626.035 JLINK_WriteReg(R1, 0x00000080)
T71B4 000:626.044 - 0.013ms returns 0
T71B4 000:626.055 JLINK_WriteReg(R2, 0x200003F0)
T71B4 000:626.064 - 0.013ms returns 0
T71B4 000:626.074 JLINK_WriteReg(R3, 0x00000000)
T71B4 000:626.083 - 0.013ms returns 0
T71B4 000:626.094 JLINK_WriteReg(R4, 0x00000000)
T71B4 000:626.103 - 0.013ms returns 0
T71B4 000:626.113 JLINK_WriteReg(R5, 0x00000000)
T71B4 000:626.122 - 0.013ms returns 0
T71B4 000:626.134 JLINK_WriteReg(R6, 0x00000000)
T71B4 000:626.142 - 0.012ms returns 0
T71B4 000:626.152 JLINK_WriteReg(R7, 0x00000000)
T71B4 000:626.226 - 0.081ms returns 0
T71B4 000:626.240 JLINK_WriteReg(R8, 0x00000000)
T71B4 000:626.249 - 0.012ms returns 0
T71B4 000:626.258 JLINK_WriteReg(R9, 0x200003E8)
T71B4 000:626.267 - 0.012ms returns 0
T71B4 000:626.277 JLINK_WriteReg(R10, 0x00000000)
T71B4 000:626.285 - 0.012ms returns 0
T71B4 000:626.295 JLINK_WriteReg(R11, 0x00000000)
T71B4 000:626.304 - 0.012ms returns 0
T71B4 000:626.313 JLINK_WriteReg(R12, 0x00000000)
T71B4 000:626.322 - 0.012ms returns 0
T71B4 000:626.332 JLINK_WriteReg(R13 (SP), 0x20001000)
T71B4 000:626.342 - 0.014ms returns 0
T71B4 000:626.351 JLINK_WriteReg(R14, 0x20000001)
T71B4 000:626.360 - 0.012ms returns 0
T71B4 000:626.370 JLINK_WriteReg(R15 (PC), 0x20000320)
T71B4 000:626.379 - 0.012ms returns 0
T71B4 000:626.389 JLINK_WriteReg(XPSR, 0x01000000)
T71B4 000:626.397 - 0.012ms returns 0
T71B4 000:626.407 JLINK_WriteReg(MSP, 0x20001000)
T71B4 000:626.416 - 0.012ms returns 0
T71B4 000:626.425 JLINK_WriteReg(PSP, 0x20001000)
T71B4 000:626.434 - 0.012ms returns 0
T71B4 000:626.444 JLINK_WriteReg(CFBP, 0x00000000)
T71B4 000:626.452 - 0.012ms returns 0
T71B4 000:626.463 JLINK_SetBPEx(Addr = 0x20000000, Type = 0xFFFFFFF2)
T71B4 000:626.473 - 0.014ms returns 0x00000009
T71B4 000:626.483 JLINK_Go()
T71B4 000:626.500   CPU_ReadMem(4 bytes @ 0xE0001000)
T71B4 000:637.287 - 10.830ms
T71B4 000:637.325 JLINK_IsHalted()
T71B4 000:638.436 - 1.121ms returns FALSE
T71B4 000:638.457 JLINK_HasError()
T71B4 000:649.421 JLINK_IsHalted()
T71B4 000:660.117   CPU_ReadMem(2 bytes @ 0x20000000)
T71B4 000:661.239 - 11.830ms returns TRUE
T71B4 000:661.264 JLINK_ReadReg(R15 (PC))
T71B4 000:661.280 - 0.020ms returns 0x20000000
T71B4 000:661.294 JLINK_ClrBPEx(BPHandle = 0x00000009)
T71B4 000:661.305 - 0.016ms returns 0x00
T71B4 000:661.317 JLINK_ReadReg(R0)
T71B4 000:661.327 - 0.014ms returns 0x00000000
T71B4 000:662.486 JLINK_WriteMem(0x200003F0, 0x10 Bytes, ...)
T71B4 000:662.506   Data:  00 25 01 9B 93 42 1A 46 09 95 00 95 00 D0 00 90
T71B4 000:662.533   CPU_WriteMem(16 bytes @ 0x200003F0)
T71B4 000:663.896 - 1.420ms returns 0x10
T71B4 000:663.914 JLINK_WriteMem(0x20000400, 0x70 Bytes, ...)
T71B4 000:663.923   Data:  09 98 0A 90 05 46 03 9E 05 91 70 1E 03 9F 08 90 ...
T71B4 000:663.940   CPU_WriteMem(112 bytes @ 0x20000400)
T71B4 000:667.338 - 3.439ms returns 0x70
T71B4 000:667.365 JLINK_HasError()
T71B4 000:667.376 JLINK_WriteReg(R0, 0x08000280)
T71B4 000:667.392 - 0.019ms returns 0
T71B4 000:667.403 JLINK_WriteReg(R1, 0x00000080)
T71B4 000:667.412 - 0.013ms returns 0
T71B4 000:667.422 JLINK_WriteReg(R2, 0x200003F0)
T71B4 000:667.431 - 0.012ms returns 0
T71B4 000:667.440 JLINK_WriteReg(R3, 0x00000000)
T71B4 000:667.449 - 0.012ms returns 0
T71B4 000:667.459 JLINK_WriteReg(R4, 0x00000000)
T71B4 000:667.467 - 0.012ms returns 0
T71B4 000:667.477 JLINK_WriteReg(R5, 0x00000000)
T71B4 000:667.485 - 0.012ms returns 0
T71B4 000:667.495 JLINK_WriteReg(R6, 0x00000000)
T71B4 000:667.504 - 0.012ms returns 0
T71B4 000:667.514 JLINK_WriteReg(R7, 0x00000000)
T71B4 000:667.522 - 0.012ms returns 0
T71B4 000:667.532 JLINK_WriteReg(R8, 0x00000000)
T71B4 000:667.541 - 0.012ms returns 0
T71B4 000:667.551 JLINK_WriteReg(R9, 0x200003E8)
T71B4 000:667.559 - 0.012ms returns 0
T71B4 000:667.569 JLINK_WriteReg(R10, 0x00000000)
T71B4 000:667.577 - 0.012ms returns 0
T71B4 000:667.587 JLINK_WriteReg(R11, 0x00000000)
T71B4 000:667.596 - 0.012ms returns 0
T71B4 000:667.605 JLINK_WriteReg(R12, 0x00000000)
T71B4 000:667.614 - 0.012ms returns 0
T71B4 000:667.624 JLINK_WriteReg(R13 (SP), 0x20001000)
T71B4 000:667.633 - 0.013ms returns 0
T71B4 000:667.643 JLINK_WriteReg(R14, 0x20000001)
T71B4 000:667.652 - 0.012ms returns 0
T71B4 000:667.662 JLINK_WriteReg(R15 (PC), 0x20000320)
T71B4 000:667.671 - 0.012ms returns 0
T71B4 000:667.680 JLINK_WriteReg(XPSR, 0x01000000)
T71B4 000:667.689 - 0.012ms returns 0
T71B4 000:667.699 JLINK_WriteReg(MSP, 0x20001000)
T71B4 000:667.708 - 0.012ms returns 0
T71B4 000:667.717 JLINK_WriteReg(PSP, 0x20001000)
T71B4 000:667.726 - 0.020ms returns 0
T71B4 000:667.747 JLINK_WriteReg(CFBP, 0x00000000)
T71B4 000:667.756 - 0.012ms returns 0
T71B4 000:667.766 JLINK_SetBPEx(Addr = 0x20000000, Type = 0xFFFFFFF2)
T71B4 000:667.776 - 0.014ms returns 0x0000000A
T71B4 000:667.786 JLINK_Go()
T71B4 000:667.805   CPU_ReadMem(4 bytes @ 0xE0001000)
T71B4 000:678.486 - 10.718ms
T71B4 000:678.518 JLINK_IsHalted()
T71B4 000:689.268   CPU_ReadMem(2 bytes @ 0x20000000)
T71B4 000:690.325 - 11.815ms returns TRUE
T71B4 000:690.349 JLINK_ReadReg(R15 (PC))
T71B4 000:690.364 - 0.019ms returns 0x20000000
T71B4 000:690.474 JLINK_ClrBPEx(BPHandle = 0x0000000A)
T71B4 000:690.485 - 0.016ms returns 0x00
T71B4 000:690.497 JLINK_ReadReg(R0)
T71B4 000:690.506 - 0.014ms returns 0x00000000
T71B4 000:693.413 JLINK_WriteMem(0x200003F0, 0x10 Bytes, ...)
T71B4 000:693.436   Data:  05 40 05 99 CE 68 A6 40 2E 43 96 60 1D 09 08 99
T71B4 000:693.464   CPU_WriteMem(16 bytes @ 0x200003F0)
T71B4 000:694.808 - 1.406ms returns 0x10
T71B4 000:694.830 JLINK_WriteMem(0x20000400, 0x70 Bytes, ...)
T71B4 000:694.841   Data:  8D 40 56 68 BE 43 2E 43 56 60 D5 68 05 40 05 99 ...
T71B4 000:694.865   CPU_WriteMem(112 bytes @ 0x20000400)
T71B4 000:698.243 - 3.422ms returns 0x70
T71B4 000:698.265 JLINK_HasError()
T71B4 000:698.277 JLINK_WriteReg(R0, 0x08000300)
T71B4 000:698.290 - 0.017ms returns 0
T71B4 000:698.301 JLINK_WriteReg(R1, 0x00000080)
T71B4 000:698.310 - 0.013ms returns 0
T71B4 000:698.320 JLINK_WriteReg(R2, 0x200003F0)
T71B4 000:698.330 - 0.013ms returns 0
T71B4 000:698.340 JLINK_WriteReg(R3, 0x00000000)
T71B4 000:698.349 - 0.013ms returns 0
T71B4 000:698.360 JLINK_WriteReg(R4, 0x00000000)
T71B4 000:698.369 - 0.013ms returns 0
T71B4 000:698.380 JLINK_WriteReg(R5, 0x00000000)
T71B4 000:698.389 - 0.013ms returns 0
T71B4 000:698.399 JLINK_WriteReg(R6, 0x00000000)
T71B4 000:698.408 - 0.013ms returns 0
T71B4 000:698.419 JLINK_WriteReg(R7, 0x00000000)
T71B4 000:698.428 - 0.013ms returns 0
T71B4 000:698.438 JLINK_WriteReg(R8, 0x00000000)
T71B4 000:698.448 - 0.013ms returns 0
T71B4 000:698.458 JLINK_WriteReg(R9, 0x200003E8)
T71B4 000:698.467 - 0.013ms returns 0
T71B4 000:698.478 JLINK_WriteReg(R10, 0x00000000)
T71B4 000:698.487 - 0.013ms returns 0
T71B4 000:698.497 JLINK_WriteReg(R11, 0x00000000)
T71B4 000:698.507 - 0.013ms returns 0
T71B4 000:698.517 JLINK_WriteReg(R12, 0x00000000)
T71B4 000:698.526 - 0.013ms returns 0
T71B4 000:698.536 JLINK_WriteReg(R13 (SP), 0x20001000)
T71B4 000:698.547 - 0.014ms returns 0
T71B4 000:698.557 JLINK_WriteReg(R14, 0x20000001)
T71B4 000:698.566 - 0.013ms returns 0
T71B4 000:698.577 JLINK_WriteReg(R15 (PC), 0x20000320)
T71B4 000:698.586 - 0.013ms returns 0
T71B4 000:698.596 JLINK_WriteReg(XPSR, 0x01000000)
T71B4 000:698.606 - 0.013ms returns 0
T71B4 000:698.616 JLINK_WriteReg(MSP, 0x20001000)
T71B4 000:698.625 - 0.013ms returns 0
T71B4 000:698.636 JLINK_WriteReg(PSP, 0x20001000)
T71B4 000:698.645 - 0.013ms returns 0
T71B4 000:698.655 JLINK_WriteReg(CFBP, 0x00000000)
T71B4 000:698.665 - 0.013ms returns 0
T71B4 000:698.675 JLINK_SetBPEx(Addr = 0x20000000, Type = 0xFFFFFFF2)
T71B4 000:698.686 - 0.015ms returns 0x0000000B
T71B4 000:698.697 JLINK_Go()
T71B4 000:698.715   CPU_ReadMem(4 bytes @ 0xE0001000)
T71B4 000:709.446 - 10.766ms
T71B4 000:709.475 JLINK_IsHalted()
T71B4 000:720.263   CPU_ReadMem(2 bytes @ 0x20000000)
T71B4 000:721.244 - 11.790ms returns TRUE
T71B4 000:721.282 JLINK_ReadReg(R15 (PC))
T71B4 000:721.301 - 0.023ms returns 0x20000000
T71B4 000:721.361 JLINK_ClrBPEx(BPHandle = 0x0000000B)
T71B4 000:721.373 - 0.016ms returns 0x00
T71B4 000:721.385 JLINK_ReadReg(R0)
T71B4 000:721.396 - 0.014ms returns 0x00000000
T71B4 000:723.447 JLINK_WriteMem(0x200003F0, 0x10 Bytes, ...)
T71B4 000:723.470   Data:  07 9D 38 60 78 68 9A 02 01 D5 20 43 00 E0 A0 43
T71B4 000:723.498   CPU_WriteMem(16 bytes @ 0x200003F0)
T71B4 000:724.845 - 1.416ms returns 0x10
T71B4 000:724.876 JLINK_WriteMem(0x20000400, 0x70 Bytes, ...)
T71B4 000:724.887   Data:  01 9A 78 60 0C 68 20 46 F0 40 09 9B 1B 1D 09 93 ...
T71B4 000:724.928   CPU_WriteMem(112 bytes @ 0x20000400)
T71B4 000:728.449 - 3.589ms returns 0x70
T71B4 000:728.478 JLINK_HasError()
T71B4 000:728.492 JLINK_WriteReg(R0, 0x08000380)
T71B4 000:728.508 - 0.021ms returns 0
T71B4 000:728.520 JLINK_WriteReg(R1, 0x00000080)
T71B4 000:728.530 - 0.014ms returns 0
T71B4 000:728.542 JLINK_WriteReg(R2, 0x200003F0)
T71B4 000:728.552 - 0.014ms returns 0
T71B4 000:728.563 JLINK_WriteReg(R3, 0x00000000)
T71B4 000:728.573 - 0.014ms returns 0
T71B4 000:728.584 JLINK_WriteReg(R4, 0x00000000)
T71B4 000:728.594 - 0.014ms returns 0
T71B4 000:728.605 JLINK_WriteReg(R5, 0x00000000)
T71B4 000:728.614 - 0.014ms returns 0
T71B4 000:728.626 JLINK_WriteReg(R6, 0x00000000)
T71B4 000:728.635 - 0.014ms returns 0
T71B4 000:728.646 JLINK_WriteReg(R7, 0x00000000)
T71B4 000:728.656 - 0.014ms returns 0
T71B4 000:728.667 JLINK_WriteReg(R8, 0x00000000)
T71B4 000:728.677 - 0.014ms returns 0
T71B4 000:728.688 JLINK_WriteReg(R9, 0x200003E8)
T71B4 000:728.698 - 0.014ms returns 0
T71B4 000:728.709 JLINK_WriteReg(R10, 0x00000000)
T71B4 000:728.719 - 0.014ms returns 0
T71B4 000:728.730 JLINK_WriteReg(R11, 0x00000000)
T71B4 000:728.740 - 0.014ms returns 0
T71B4 000:728.751 JLINK_WriteReg(R12, 0x00000000)
T71B4 000:728.760 - 0.014ms returns 0
T71B4 000:728.771 JLINK_WriteReg(R13 (SP), 0x20001000)
T71B4 000:728.782 - 0.015ms returns 0
T71B4 000:728.794 JLINK_WriteReg(R14, 0x20000001)
T71B4 000:728.803 - 0.014ms returns 0
T71B4 000:728.814 JLINK_WriteReg(R15 (PC), 0x20000320)
T71B4 000:728.824 - 0.014ms returns 0
T71B4 000:728.835 JLINK_WriteReg(XPSR, 0x01000000)
T71B4 000:728.845 - 0.014ms returns 0
T71B4 000:728.856 JLINK_WriteReg(MSP, 0x20001000)
T71B4 000:728.866 - 0.014ms returns 0
T71B4 000:728.877 JLINK_WriteReg(PSP, 0x20001000)
T71B4 000:728.887 - 0.014ms returns 0
T71B4 000:728.898 JLINK_WriteReg(CFBP, 0x00000000)
T71B4 000:728.908 - 0.014ms returns 0
T71B4 000:728.919 JLINK_SetBPEx(Addr = 0x20000000, Type = 0xFFFFFFF2)
T71B4 000:728.931 - 0.016ms returns 0x0000000C
T71B4 000:728.942 JLINK_Go()
T71B4 000:728.964   CPU_ReadMem(4 bytes @ 0xE0001000)
T71B4 000:739.779 - 10.854ms
T71B4 000:739.810 JLINK_IsHalted()
T71B4 000:750.791   CPU_ReadMem(2 bytes @ 0x20000000)
T71B4 000:751.840 - 12.036ms returns TRUE
T71B4 000:751.861 JLINK_ReadReg(R15 (PC))
T71B4 000:751.875 - 0.018ms returns 0x20000000
T71B4 000:751.887 JLINK_ClrBPEx(BPHandle = 0x0000000C)
T71B4 000:751.897 - 0.015ms returns 0x00
T71B4 000:751.909 JLINK_ReadReg(R0)
T71B4 000:751.919 - 0.015ms returns 0x00000000
T71B4 000:754.219 JLINK_WriteMem(0x200003F0, 0x10 Bytes, ...)
T71B4 000:754.249   Data:  00 28 01 D0 01 20 80 BD 00 F0 24 F8 00 20 80 BD
T71B4 000:754.283   CPU_WriteMem(16 bytes @ 0x200003F0)
T71B4 000:755.636 - 1.427ms returns 0x10
T71B4 000:755.659 JLINK_WriteMem(0x20000400, 0x70 Bytes, ...)
T71B4 000:755.669   Data:  B0 B5 05 46 0E 48 01 68 01 24 00 29 16 D0 7D 20 ...
T71B4 000:755.687   CPU_WriteMem(112 bytes @ 0x20000400)
T71B4 000:759.091 - 3.440ms returns 0x70
T71B4 000:759.109 JLINK_HasError()
T71B4 000:759.122 JLINK_WriteReg(R0, 0x08000400)
T71B4 000:759.135 - 0.017ms returns 0
T71B4 000:759.146 JLINK_WriteReg(R1, 0x00000080)
T71B4 000:759.156 - 0.014ms returns 0
T71B4 000:759.167 JLINK_WriteReg(R2, 0x200003F0)
T71B4 000:759.177 - 0.014ms returns 0
T71B4 000:759.188 JLINK_WriteReg(R3, 0x00000000)
T71B4 000:759.198 - 0.014ms returns 0
T71B4 000:759.209 JLINK_WriteReg(R4, 0x00000000)
T71B4 000:759.219 - 0.013ms returns 0
T71B4 000:759.230 JLINK_WriteReg(R5, 0x00000000)
T71B4 000:759.240 - 0.014ms returns 0
T71B4 000:759.251 JLINK_WriteReg(R6, 0x00000000)
T71B4 000:759.260 - 0.014ms returns 0
T71B4 000:759.271 JLINK_WriteReg(R7, 0x00000000)
T71B4 000:759.281 - 0.014ms returns 0
T71B4 000:759.292 JLINK_WriteReg(R8, 0x00000000)
T71B4 000:759.302 - 0.014ms returns 0
T71B4 000:759.313 JLINK_WriteReg(R9, 0x200003E8)
T71B4 000:759.323 - 0.014ms returns 0
T71B4 000:759.334 JLINK_WriteReg(R10, 0x00000000)
T71B4 000:759.344 - 0.014ms returns 0
T71B4 000:759.355 JLINK_WriteReg(R11, 0x00000000)
T71B4 000:759.377 - 0.026ms returns 0
T71B4 000:759.388 JLINK_WriteReg(R12, 0x00000000)
T71B4 000:759.398 - 0.014ms returns 0
T71B4 000:759.409 JLINK_WriteReg(R13 (SP), 0x20001000)
T71B4 000:759.420 - 0.015ms returns 0
T71B4 000:759.431 JLINK_WriteReg(R14, 0x20000001)
T71B4 000:759.441 - 0.014ms returns 0
T71B4 000:759.452 JLINK_WriteReg(R15 (PC), 0x20000320)
T71B4 000:759.463 - 0.014ms returns 0
T71B4 000:759.474 JLINK_WriteReg(XPSR, 0x01000000)
T71B4 000:759.483 - 0.014ms returns 0
T71B4 000:759.495 JLINK_WriteReg(MSP, 0x20001000)
T71B4 000:759.504 - 0.014ms returns 0
T71B4 000:759.515 JLINK_WriteReg(PSP, 0x20001000)
T71B4 000:759.525 - 0.014ms returns 0
T71B4 000:759.536 JLINK_WriteReg(CFBP, 0x00000000)
T71B4 000:759.546 - 0.014ms returns 0
T71B4 000:759.558 JLINK_SetBPEx(Addr = 0x20000000, Type = 0xFFFFFFF2)
T71B4 000:759.570 - 0.016ms returns 0x0000000D
T71B4 000:759.581 JLINK_Go()
T71B4 000:759.600   CPU_ReadMem(4 bytes @ 0xE0001000)
T71B4 000:770.380 - 10.813ms
T71B4 000:770.405 JLINK_IsHalted()
T71B4 000:781.122   CPU_ReadMem(2 bytes @ 0x20000000)
T71B4 000:782.136 - 11.740ms returns TRUE
T71B4 000:782.162 JLINK_ReadReg(R15 (PC))
T71B4 000:782.176 - 0.018ms returns 0x20000000
T71B4 000:782.244 JLINK_ClrBPEx(BPHandle = 0x0000000D)
T71B4 000:782.256 - 0.017ms returns 0x00
T71B4 000:782.269 JLINK_ReadReg(R0)
T71B4 000:782.280 - 0.015ms returns 0x00000000
T71B4 000:783.408 JLINK_WriteMem(0x200003F0, 0x10 Bytes, ...)
T71B4 000:783.439   Data:  1F 21 01 40 01 20 88 40 01 49 08 60 70 47 C0 46
T71B4 000:783.475   CPU_WriteMem(16 bytes @ 0x200003F0)
T71B4 000:784.826 - 1.435ms returns 0x10
T71B4 000:784.855 JLINK_WriteMem(0x20000400, 0x70 Bytes, ...)
T71B4 000:784.867   Data:  00 E1 00 E0 00 28 05 D4 03 22 03 46 93 43 0B 4A ...
T71B4 000:784.893   CPU_WriteMem(112 bytes @ 0x20000400)
T71B4 000:788.355 - 3.511ms returns 0x70
T71B4 000:788.377 JLINK_HasError()
T71B4 000:788.390 JLINK_WriteReg(R0, 0x08000480)
T71B4 000:788.405 - 0.019ms returns 0
T71B4 000:788.417 JLINK_WriteReg(R1, 0x00000080)
T71B4 000:788.427 - 0.014ms returns 0
T71B4 000:788.438 JLINK_WriteReg(R2, 0x200003F0)
T71B4 000:788.448 - 0.014ms returns 0
T71B4 000:788.459 JLINK_WriteReg(R3, 0x00000000)
T71B4 000:788.469 - 0.014ms returns 0
T71B4 000:788.480 JLINK_WriteReg(R4, 0x00000000)
T71B4 000:788.490 - 0.014ms returns 0
T71B4 000:788.501 JLINK_WriteReg(R5, 0x00000000)
T71B4 000:788.511 - 0.014ms returns 0
T71B4 000:788.522 JLINK_WriteReg(R6, 0x00000000)
T71B4 000:788.531 - 0.014ms returns 0
T71B4 000:788.543 JLINK_WriteReg(R7, 0x00000000)
T71B4 000:788.552 - 0.014ms returns 0
T71B4 000:788.563 JLINK_WriteReg(R8, 0x00000000)
T71B4 000:788.573 - 0.014ms returns 0
T71B4 000:788.584 JLINK_WriteReg(R9, 0x200003E8)
T71B4 000:788.594 - 0.014ms returns 0
T71B4 000:788.605 JLINK_WriteReg(R10, 0x00000000)
T71B4 000:788.615 - 0.014ms returns 0
T71B4 000:788.626 JLINK_WriteReg(R11, 0x00000000)
T71B4 000:788.636 - 0.014ms returns 0
T71B4 000:788.647 JLINK_WriteReg(R12, 0x00000000)
T71B4 000:788.657 - 0.014ms returns 0
T71B4 000:788.668 JLINK_WriteReg(R13 (SP), 0x20001000)
T71B4 000:788.679 - 0.015ms returns 0
T71B4 000:788.690 JLINK_WriteReg(R14, 0x20000001)
T71B4 000:788.700 - 0.014ms returns 0
T71B4 000:788.711 JLINK_WriteReg(R15 (PC), 0x20000320)
T71B4 000:788.721 - 0.014ms returns 0
T71B4 000:788.732 JLINK_WriteReg(XPSR, 0x01000000)
T71B4 000:788.742 - 0.014ms returns 0
T71B4 000:788.753 JLINK_WriteReg(MSP, 0x20001000)
T71B4 000:788.763 - 0.014ms returns 0
T71B4 000:788.774 JLINK_WriteReg(PSP, 0x20001000)
T71B4 000:788.784 - 0.014ms returns 0
T71B4 000:788.795 JLINK_WriteReg(CFBP, 0x00000000)
T71B4 000:788.805 - 0.014ms returns 0
T71B4 000:788.816 JLINK_SetBPEx(Addr = 0x20000000, Type = 0xFFFFFFF2)
T71B4 000:788.827 - 0.016ms returns 0x0000000E
T71B4 000:788.839 JLINK_Go()
T71B4 000:788.858   CPU_ReadMem(4 bytes @ 0xE0001000)
T71B4 000:799.572 - 10.751ms
T71B4 000:799.602 JLINK_IsHalted()
T71B4 000:810.468   CPU_ReadMem(2 bytes @ 0x20000000)
T71B4 000:811.523 - 11.934ms returns TRUE
T71B4 000:811.557 JLINK_ReadReg(R15 (PC))
T71B4 000:811.571 - 0.019ms returns 0x20000000
T71B4 000:811.629 JLINK_ClrBPEx(BPHandle = 0x0000000E)
T71B4 000:811.640 - 0.016ms returns 0x00
T71B4 000:811.653 JLINK_ReadReg(R0)
T71B4 000:811.663 - 0.014ms returns 0x00000000
T71B4 000:812.533 JLINK_WriteMem(0x200003F0, 0x10 Bytes, ...)
T71B4 000:812.551   Data:  07 46 42 48 00 68 30 40 A8 42 05 D0 FF F7 66 FF
T71B4 000:812.576   CPU_WriteMem(16 bytes @ 0x200003F0)
T71B4 000:813.889 - 1.362ms returns 0x10
T71B4 000:813.905 JLINK_WriteMem(0x20000400, 0x70 Bytes, ...)
T71B4 000:813.916   Data:  C0 1B A0 42 F5 D9 76 E0 02 9C 20 68 81 07 46 4B ...
T71B4 000:813.935   CPU_WriteMem(112 bytes @ 0x20000400)
T71B4 000:817.460 - 3.583ms returns 0x70
T71B4 000:817.505 JLINK_HasError()
T71B4 000:817.520 JLINK_WriteReg(R0, 0x08000500)
T71B4 000:817.542 - 0.025ms returns 0
T71B4 000:817.554 JLINK_WriteReg(R1, 0x00000080)
T71B4 000:817.565 - 0.015ms returns 0
T71B4 000:817.576 JLINK_WriteReg(R2, 0x200003F0)
T71B4 000:817.586 - 0.014ms returns 0
T71B4 000:817.597 JLINK_WriteReg(R3, 0x00000000)
T71B4 000:817.607 - 0.014ms returns 0
T71B4 000:817.618 JLINK_WriteReg(R4, 0x00000000)
T71B4 000:817.628 - 0.014ms returns 0
T71B4 000:817.639 JLINK_WriteReg(R5, 0x00000000)
T71B4 000:817.649 - 0.014ms returns 0
T71B4 000:817.660 JLINK_WriteReg(R6, 0x00000000)
T71B4 000:817.670 - 0.014ms returns 0
T71B4 000:817.681 JLINK_WriteReg(R7, 0x00000000)
T71B4 000:817.690 - 0.014ms returns 0
T71B4 000:817.702 JLINK_WriteReg(R8, 0x00000000)
T71B4 000:817.712 - 0.014ms returns 0
T71B4 000:817.723 JLINK_WriteReg(R9, 0x200003E8)
T71B4 000:817.733 - 0.014ms returns 0
T71B4 000:817.744 JLINK_WriteReg(R10, 0x00000000)
T71B4 000:817.754 - 0.014ms returns 0
T71B4 000:817.765 JLINK_WriteReg(R11, 0x00000000)
T71B4 000:817.775 - 0.014ms returns 0
